T16E0 000:005.383   SEGGER J-Link V6.88a Log File
T16E0 000:005.515   DLL Compiled: Nov 18 2020 15:09:23
T16E0 000:005.522   Logging started @ 2023-06-20 08:44
T16E0 000:005.528 - 5.531ms
T16E0 000:005.536 JLINK_SetWarnOutHandler(...)
T16E0 000:005.544 - 0.010ms
T16E0 000:005.551 JLINK_OpenEx(...)
T16E0 000:010.301   Firmware: J-Link V9 compiled Dec 13 2022 11:14:50
T16E0 000:010.496   Decompressing FW timestamp took 151 us
T16E0 000:022.702   Hardware: V9.20
T16E0 000:022.736   S/N: 25952305
T16E0 000:022.748   OEM: SEGGER
T16E0 000:022.758   Feature(s): RDI, GDB, FlashDL, FlashBP, JFlash
T16E0 000:026.846   TELNET listener socket opened on port 19021
T16E0 000:027.006   WEBSRV Starting webserver
T16E0 000:027.177   WEBSRV Webserver running on local port 19080
T16E0 000:027.218 - 21.670ms returns "O.K."
T16E0 000:027.234 JLINK_GetEmuCaps()
T16E0 000:027.240 - 0.009ms returns 0xB9FF7BBF
T16E0 000:027.250 JLINK_TIF_GetAvailable(...)
T16E0 000:027.699 - 0.475ms
T16E0 000:027.738 JLINK_SetErrorOutHandler(...)
T16E0 000:027.746 - 0.013ms
T16E0 000:027.763 JLINK_ExecCommand("ProjectFile = "C:\Users\Admin\Desktop\Project\STM32-learning\Projects\MM32SPIN360C_BLDC\Seekfree files\BLDC drone dev\SEEKFREE_MM32SPIN360C_BLDC_untouched\project\mdk\JLinkSettings.ini"", ...). 
T16E0 000:040.583   Ref file found at: C:\keil5\ARM\Segger\JLinkDevices.ref
T16E0 000:040.706   XML referenced by ref file: C:\Program Files (x86)\SEGGER\JLink\JLinkDevices.xml
T16E0 000:042.988   C:\Program Files (x86)\SEGGER\JLink\JLinkDevices.xml evaluated successfully.
T16E0 000:071.387   Device "CORTEX-M0" selected.
T16E0 000:071.566 - 43.808ms returns 0x00
T16E0 000:072.806 JLINK_ExecCommand("Device = MM32SPIN27PF", ...). 
T16E0 000:074.354   Device "MM32SPIN27PF" selected.
T16E0 000:074.473 - 1.657ms returns 0x00
T16E0 000:074.488 JLINK_GetHardwareVersion()
T16E0 000:074.494 - 0.008ms returns 92000
T16E0 000:074.501 JLINK_GetDLLVersion()
T16E0 000:074.506 - 0.008ms returns 68801
T16E0 000:074.521 JLINK_GetOEMString(...)
T16E0 000:074.528 JLINK_GetFirmwareString(...)
T16E0 000:074.533 - 0.007ms
T16E0 000:077.518 JLINK_GetDLLVersion()
T16E0 000:077.532 - 0.016ms returns 68801
T16E0 000:077.539 JLINK_GetCompileDateTime()
T16E0 000:077.544 - 0.007ms
T16E0 000:078.414 JLINK_GetFirmwareString(...)
T16E0 000:078.427 - 0.015ms
T16E0 000:079.345 JLINK_GetHardwareVersion()
T16E0 000:079.357 - 0.015ms returns 92000
T16E0 000:080.326 JLINK_GetSN()
T16E0 000:080.338 - 0.015ms returns 25952305
T16E0 000:081.299 JLINK_GetOEMString(...)
T16E0 000:083.128 JLINK_TIF_Select(JLINKARM_TIF_SWD)
T16E0 000:087.288 - 4.172ms returns 0x00
T16E0 000:087.307 JLINK_HasError()
T16E0 000:087.315 JLINK_SetSpeed(5000)
T16E0 000:088.298 - 0.989ms
T16E0 000:088.309 JLINK_GetId()
T16E0 000:092.924   ConfigTargetSettings() start
T16E0 000:092.940    J-Link Script File: Executing ConfigTargetSettings()
T16E0 000:093.919   [ConfigTargetSettings]
T16E0 000:096.140   ConfigTargetSettings() end
T16E0 000:097.567   InitTarget() start
T16E0 000:097.583    J-Link Script File: Executing InitTarget()
T16E0 000:102.767   InitTarget() end
T16E0 000:105.997   Found SW-DP with ID 0x0BB11477
T16E0 000:111.166   Old FW that does not support reading DPIDR via DAP jobs
T16E0 000:113.222   Unknown DP version. Assuming DPv0
T16E0 000:114.216   AP map detection skipped. Manually configured AP map found.
T16E0 000:115.226   AP[0]: AHB-AP (IDR: Not set)
T16E0 000:118.558   AP[0]: Core found
T16E0 000:119.633   AP[0]: AHB-AP ROM base: 0xE00FF000
T16E0 000:121.961   CPUID register: 0x410CC200. Implementer code: 0x41 (ARM)
T16E0 000:123.059   Found Cortex-M0 r0p0, Little endian.
T16E0 000:225.255   -- Max. mem block: 0x00010BB0
T16E0 000:225.374   CPU_ReadMem(4 bytes @ 0xE000EDF0)
T16E0 000:227.186   CPU_WriteMem(4 bytes @ 0xE000EDF0)
T16E0 000:228.253   CPU_ReadMem(4 bytes @ 0xE0002000)
T16E0 000:234.225   FPUnit: 4 code (BP) slots and 0 literal slots
T16E0 000:234.325   CPU_ReadMem(4 bytes @ 0xE000EDFC)
T16E0 000:235.695   CPU_ReadMem(4 bytes @ 0xE0001000)
T16E0 000:236.771   CPU_WriteMem(4 bytes @ 0xE0001000)
T16E0 000:242.295   CoreSight components:
T16E0 000:246.469   ROMTbl[0] @ E00FF000
T16E0 000:246.548   CPU_ReadMem(64 bytes @ 0xE00FF000)
T16E0 000:247.903   CPU_ReadMem(32 bytes @ 0xE000EFE0)
T16E0 000:253.525   ROMTbl[0][0]: E000E000, CID: B105E00D, PID: 000BB008 SCS
T16E0 000:253.622   CPU_ReadMem(32 bytes @ 0xE0001FE0)
T16E0 000:259.711   ROMTbl[0][1]: E0001000, CID: B105E00D, PID: 000BB00A DWT
T16E0 000:259.810   CPU_ReadMem(32 bytes @ 0xE0002FE0)
T16E0 000:266.778   ROMTbl[0][2]: E0002000, CID: B105E00D, PID: 000BB00B FPB
T16E0 000:267.978 - 179.679ms returns 0x0BB11477
T16E0 000:267.999 JLINK_GetDLLVersion()
T16E0 000:268.005 - 0.008ms returns 68801
T16E0 000:268.040 JLINK_CORE_GetFound()
T16E0 000:268.046 - 0.008ms returns 0x60000FF
T16E0 000:268.053 JLINK_GetDebugInfo(0x100 = JLINKARM_ROM_TABLE_ADDR_INDEX)
T16E0 000:268.060   Value=0xE00FF000
T16E0 000:268.067 - 0.017ms returns 0
T16E0 000:269.115 JLINK_GetDebugInfo(0x100 = JLINKARM_ROM_TABLE_ADDR_INDEX)
T16E0 000:269.130   Value=0xE00FF000
T16E0 000:269.138 - 0.026ms returns 0
T16E0 000:269.145 JLINK_GetDebugInfo(0x101 = JLINKARM_DEBUG_INFO_ETM_ADDR_INDEX)
T16E0 000:269.151   Value=0x00000000
T16E0 000:269.159 - 0.016ms returns 0
T16E0 000:269.166 JLINK_ReadMemEx(0xE0041FF0, 0x10 Bytes, Flags = 0x02000004)
T16E0 000:269.182   CPU_ReadMem(16 bytes @ 0xE0041FF0)
T16E0 000:270.321   Data:  00 00 00 00 00 00 00 00 00 00 00 00 00 00 00 00
T16E0 000:270.334 - 1.170ms returns 16 (0x10)
T16E0 000:270.342 JLINK_GetDebugInfo(0x102 = JLINKARM_DEBUG_INFO_MTB_ADDR_INDEX)
T16E0 000:270.349   Value=0x00000000
T16E0 000:270.357 - 0.017ms returns 0
T16E0 000:270.364 JLINK_GetDebugInfo(0x103 = JLINKARM_DEBUG_INFO_TPIU_ADDR_INDEX)
T16E0 000:270.370   Value=0x00000000
T16E0 000:270.378 - 0.016ms returns 0
T16E0 000:270.384 JLINK_ReadMemEx(0xE0040FF0, 0x10 Bytes, Flags = 0x02000004)
T16E0 000:270.394   CPU_ReadMem(16 bytes @ 0xE0040FF0)
T16E0 000:271.321   Data:  00 00 00 00 00 00 00 00 00 00 00 00 00 00 00 00
T16E0 000:271.334 - 0.953ms returns 16 (0x10)
T16E0 000:271.342 JLINK_GetDebugInfo(0x104 = JLINKARM_DEBUG_INFO_ITM_ADDR_INDEX)
T16E0 000:271.349   Value=0xE0000000
T16E0 000:271.356 - 0.016ms returns 0
T16E0 000:271.363 JLINK_GetDebugInfo(0x105 = JLINKARM_DEBUG_INFO_DWT_ADDR_INDEX)
T16E0 000:271.369   Value=0xE0001000
T16E0 000:271.377 - 0.016ms returns 0
T16E0 000:271.383 JLINK_GetDebugInfo(0x106 = JLINKARM_DEBUG_INFO_FPB_ADDR_INDEX)
T16E0 000:271.389   Value=0xE0002000
T16E0 000:271.397 - 0.016ms returns 0
T16E0 000:271.403 JLINK_GetDebugInfo(0x107 = JLINKARM_DEBUG_INFO_NVIC_ADDR_INDEX)
T16E0 000:271.409   Value=0xE000E000
T16E0 000:271.417 - 0.016ms returns 0
T16E0 000:271.423 JLINK_GetDebugInfo(0x10C = JLINKARM_DEBUG_INFO_DBG_ADDR_INDEX)
T16E0 000:271.429   Value=0xE000EDF0
T16E0 000:271.437 - 0.016ms returns 0
T16E0 000:271.444 JLINK_GetDebugInfo(0x01 = Unknown)
T16E0 000:271.450   Value=0x00000000
T16E0 000:271.457 - 0.016ms returns 0
T16E0 000:271.464 JLINK_ReadMemU32(0xE000ED00, 0x1 Items)
T16E0 000:271.474   CPU_ReadMem(4 bytes @ 0xE000ED00)
T16E0 000:272.319   Data:  00 C2 0C 41
T16E0 000:272.330   Debug reg: CPUID
T16E0 000:272.338 - 0.876ms returns 1 (0x1)
T16E0 000:272.346 JLINK_GetDebugInfo(0x10F = JLINKARM_DEBUG_INFO_HAS_CORTEX_M_SECURITY_EXT_INDEX)
T16E0 000:272.352   Value=0x00000000
T16E0 000:272.360 - 0.016ms returns 0
T16E0 000:272.366 JLINK_HasError()
T16E0 000:272.373 JLINK_SetResetType(JLINKARM_CM3_RESET_TYPE_NORMAL)
T16E0 000:272.379 - 0.008ms returns JLINKARM_CM3_RESET_TYPE_NORMAL
T16E0 000:272.386 JLINK_Reset()
T16E0 000:272.397   CPU is running
T16E0 000:272.406   CPU_WriteMem(4 bytes @ 0xE000EDF0)
T16E0 000:273.318   CPU is running
T16E0 000:273.329   CPU_WriteMem(4 bytes @ 0xE000EDFC)
T16E0 000:275.380   Reset: Halt core after reset via DEMCR.VC_CORERESET.
T16E0 000:278.528   Reset: Reset device via AIRCR.SYSRESETREQ.
T16E0 000:278.553   CPU is running
T16E0 000:278.562   CPU_WriteMem(4 bytes @ 0xE000ED0C)
T16E0 000:332.194   CPU_ReadMem(4 bytes @ 0xE000EDF0)
T16E0 000:333.199   CPU_ReadMem(4 bytes @ 0xE000EDF0)
T16E0 000:334.185   CPU is running
T16E0 000:334.283   CPU_WriteMem(4 bytes @ 0xE000EDF0)
T16E0 000:335.169   CPU is running
T16E0 000:335.269   CPU_WriteMem(4 bytes @ 0xE000EDFC)
T16E0 000:340.756   CPU_ReadMem(4 bytes @ 0xE000EDF0)
T16E0 000:345.241   CPU_WriteMem(4 bytes @ 0xE0002000)
T16E0 000:346.206   CPU_ReadMem(4 bytes @ 0xE000EDFC)
T16E0 000:347.203   CPU_ReadMem(4 bytes @ 0xE0001000)
T16E0 000:348.199   CPU_WriteMem(4 bytes @ 0xE0001000)
T16E0 000:349.270 - 76.928ms
T16E0 000:349.348 JLINK_Halt()
T16E0 000:349.374 - 0.037ms returns 0x00
T16E0 000:349.405 JLINK_ReadMemU32(0xE000EDF0, 0x1 Items)
T16E0 000:349.451   CPU_ReadMem(4 bytes @ 0xE000EDF0)
T16E0 000:350.195   Data:  03 00 03 00
T16E0 000:350.263   Debug reg: DHCSR
T16E0 000:350.297 - 0.903ms returns 1 (0x1)
T16E0 000:350.336 JLINK_WriteU32_64(0xE000EDF0, 0xA05F0003)
T16E0 000:350.362   Debug reg: DHCSR
T16E0 000:351.575   CPU_WriteMem(4 bytes @ 0xE000EDF0)
T16E0 000:352.851 - 2.605ms returns 0 (0x00000000)
T16E0 000:352.976 JLINK_WriteU32_64(0xE000EDFC, 0x01000000)
T16E0 000:353.005   Debug reg: DEMCR
T16E0 000:353.059   CPU_WriteMem(4 bytes @ 0xE000EDFC)
T16E0 000:353.847 - 0.914ms returns 0 (0x00000000)
T16E0 000:371.087 JLINK_GetHWStatus(...)
T16E0 000:372.570 - 1.547ms returns 0
T16E0 000:384.785 JLINK_GetNumBPUnits(Type = 0xFFFFFF00)
T16E0 000:384.855 - 0.083ms returns 0x04
T16E0 000:384.887 JLINK_GetNumBPUnits(Type = 0xF0)
T16E0 000:384.911 - 0.036ms returns 0x2000
T16E0 000:384.939 JLINK_GetNumWPUnits()
T16E0 000:384.961 - 0.033ms returns 2
T16E0 000:389.074 JLINK_GetSpeed()
T16E0 000:389.089 - 0.018ms returns 4000
T16E0 000:390.807 JLINK_ReadMemU32(0xE000E004, 0x1 Items)
T16E0 000:390.830   CPU_ReadMem(4 bytes @ 0xE000E004)
T16E0 000:392.026   Data:  00 00 00 00
T16E0 000:392.038 - 1.234ms returns 1 (0x1)
T16E0 000:392.049 JLINK_Halt()
T16E0 000:392.055 - 0.008ms returns 0x00
T16E0 000:392.062 JLINK_IsHalted()
T16E0 000:392.069 - 0.009ms returns TRUE
T16E0 000:393.934 JLINK_WriteMem(0x20000000, 0x234 Bytes, ...)
T16E0 000:393.945   Data:  00 BE 0A E0 0D 78 2D 06 68 40 08 24 40 00 00 D3 ...
T16E0 000:394.358   CPU_WriteMem(564 bytes @ 0x20000000)
T16E0 000:396.716 - 2.789ms returns 0x234
T16E0 000:396.742 JLINK_HasError()
T16E0 000:396.750 JLINK_WriteReg(R0, 0x08000000)
T16E0 000:396.759 - 0.012ms returns 0
T16E0 000:396.766 JLINK_WriteReg(R1, 0x00B71B00)
T16E0 000:396.772 - 0.009ms returns 0
T16E0 000:396.779 JLINK_WriteReg(R2, 0x00000001)
T16E0 000:396.785 - 0.009ms returns 0
T16E0 000:396.791 JLINK_WriteReg(R3, 0x00000000)
T16E0 000:396.798 - 0.009ms returns 0
T16E0 000:396.804 JLINK_WriteReg(R4, 0x00000000)
T16E0 000:396.810 - 0.008ms returns 0
T16E0 000:396.817 JLINK_WriteReg(R5, 0x00000000)
T16E0 000:396.823 - 0.009ms returns 0
T16E0 000:396.829 JLINK_WriteReg(R6, 0x00000000)
T16E0 000:396.835 - 0.008ms returns 0
T16E0 000:396.842 JLINK_WriteReg(R7, 0x00000000)
T16E0 000:396.848 - 0.009ms returns 0
T16E0 000:396.855 JLINK_WriteReg(R8, 0x00000000)
T16E0 000:396.861 - 0.008ms returns 0
T16E0 000:396.867 JLINK_WriteReg(R9, 0x20000230)
T16E0 000:396.873 - 0.009ms returns 0
T16E0 000:396.880 JLINK_WriteReg(R10, 0x00000000)
T16E0 000:396.886 - 0.009ms returns 0
T16E0 000:396.892 JLINK_WriteReg(R11, 0x00000000)
T16E0 000:396.898 - 0.008ms returns 0
T16E0 000:396.905 JLINK_WriteReg(R12, 0x00000000)
T16E0 000:396.911 - 0.008ms returns 0
T16E0 000:396.917 JLINK_WriteReg(R13 (SP), 0x20001000)
T16E0 000:396.924 - 0.009ms returns 0
T16E0 000:396.930 JLINK_WriteReg(R14, 0x20000001)
T16E0 000:396.936 - 0.009ms returns 0
T16E0 000:396.943 JLINK_WriteReg(R15 (PC), 0x2000002C)
T16E0 000:396.949 - 0.009ms returns 0
T16E0 000:396.956 JLINK_WriteReg(XPSR, 0x01000000)
T16E0 000:396.962 - 0.009ms returns 0
T16E0 000:396.968 JLINK_WriteReg(MSP, 0x20001000)
T16E0 000:396.975 - 0.009ms returns 0
T16E0 000:396.981 JLINK_WriteReg(PSP, 0x20001000)
T16E0 000:396.987 - 0.008ms returns 0
T16E0 000:396.997 JLINK_WriteReg(CFBP, 0x00000000)
T16E0 000:397.004 - 0.010ms returns 0
T16E0 000:397.011 JLINK_SetBPEx(Addr = 0x20000000, Type = 0xFFFFFFF2)
T16E0 000:397.020   CPU_ReadMem(2 bytes @ 0x20000000)
T16E0 000:397.737 - 0.731ms returns 0x00000001
T16E0 000:397.747 JLINK_Go()
T16E0 000:397.755   CPU_WriteMem(2 bytes @ 0x20000000)
T16E0 000:398.738   CPU_ReadMem(4 bytes @ 0xE0001000)
T16E0 000:399.734   CPU_WriteMem(4 bytes @ 0xE0001000)
T16E0 000:399.747   CPU_WriteMem(4 bytes @ 0xE0002008)
T16E0 000:399.755   CPU_WriteMem(4 bytes @ 0xE000200C)
T16E0 000:399.763   CPU_WriteMem(4 bytes @ 0xE0002010)
T16E0 000:399.772   CPU_WriteMem(4 bytes @ 0xE0002014)
T16E0 000:400.743   CPU_WriteMem(4 bytes @ 0xE0001004)
T16E0 000:404.732 - 6.994ms
T16E0 000:404.748 JLINK_IsHalted()
T16E0 000:407.728   CPU_ReadMem(2 bytes @ 0x20000000)
T16E0 000:408.734 - 3.990ms returns TRUE
T16E0 000:408.745 JLINK_ReadReg(R15 (PC))
T16E0 000:408.753 - 0.010ms returns 0x20000000
T16E0 000:408.760 JLINK_ClrBPEx(BPHandle = 0x00000001)
T16E0 000:408.766 - 0.009ms returns 0x00
T16E0 000:408.773 JLINK_ReadReg(R0)
T16E0 000:408.779 - 0.008ms returns 0x00000000
T16E0 000:408.946 JLINK_HasError()
T16E0 000:408.959 JLINK_WriteReg(R0, 0x08000000)
T16E0 000:408.967 - 0.010ms returns 0
T16E0 000:408.974 JLINK_WriteReg(R1, 0x00000400)
T16E0 000:408.980 - 0.009ms returns 0
T16E0 000:408.987 JLINK_WriteReg(R2, 0x000000FF)
T16E0 000:408.993 - 0.009ms returns 0
T16E0 000:409.000 JLINK_WriteReg(R3, 0x00000000)
T16E0 000:409.006 - 0.009ms returns 0
T16E0 000:409.012 JLINK_WriteReg(R4, 0x00000000)
T16E0 000:409.020 - 0.009ms returns 0
T16E0 000:409.026 JLINK_WriteReg(R5, 0x00000000)
T16E0 000:409.033 - 0.009ms returns 0
T16E0 000:409.039 JLINK_WriteReg(R6, 0x00000000)
T16E0 000:409.046 - 0.009ms returns 0
T16E0 000:409.052 JLINK_WriteReg(R7, 0x00000000)
T16E0 000:409.058 - 0.008ms returns 0
T16E0 000:409.065 JLINK_WriteReg(R8, 0x00000000)
T16E0 000:409.071 - 0.009ms returns 0
T16E0 000:409.077 JLINK_WriteReg(R9, 0x20000230)
T16E0 000:409.083 - 0.008ms returns 0
T16E0 000:409.090 JLINK_WriteReg(R10, 0x00000000)
T16E0 000:409.096 - 0.009ms returns 0
T16E0 000:409.103 JLINK_WriteReg(R11, 0x00000000)
T16E0 000:409.109 - 0.009ms returns 0
T16E0 000:409.115 JLINK_WriteReg(R12, 0x00000000)
T16E0 000:409.122 - 0.009ms returns 0
T16E0 000:409.128 JLINK_WriteReg(R13 (SP), 0x20001000)
T16E0 000:409.135 - 0.009ms returns 0
T16E0 000:409.141 JLINK_WriteReg(R14, 0x20000001)
T16E0 000:409.147 - 0.009ms returns 0
T16E0 000:409.154 JLINK_WriteReg(R15 (PC), 0x200001A8)
T16E0 000:409.160 - 0.009ms returns 0
T16E0 000:409.167 JLINK_WriteReg(XPSR, 0x01000000)
T16E0 000:409.173 - 0.009ms returns 0
T16E0 000:409.179 JLINK_WriteReg(MSP, 0x20001000)
T16E0 000:409.185 - 0.008ms returns 0
T16E0 000:409.192 JLINK_WriteReg(PSP, 0x20001000)
T16E0 000:409.198 - 0.009ms returns 0
T16E0 000:409.205 JLINK_WriteReg(CFBP, 0x00000000)
T16E0 000:409.211 - 0.009ms returns 0
T16E0 000:409.217 JLINK_SetBPEx(Addr = 0x20000000, Type = 0xFFFFFFF2)
T16E0 000:409.224 - 0.009ms returns 0x00000002
T16E0 000:409.231 JLINK_Go()
T16E0 000:409.242   CPU_ReadMem(4 bytes @ 0xE0001000)
T16E0 000:409.733   CPU_WriteMem(4 bytes @ 0xE0001000)
T16E0 000:413.730 - 4.506ms
T16E0 000:413.742 JLINK_IsHalted()
T16E0 000:416.771   CPU_ReadMem(2 bytes @ 0x20000000)
T16E0 000:417.761 - 4.039ms returns TRUE
T16E0 000:417.803 JLINK_ReadReg(R15 (PC))
T16E0 000:417.832 - 0.041ms returns 0x20000000
T16E0 000:417.861 JLINK_ClrBPEx(BPHandle = 0x00000002)
T16E0 000:417.887 - 0.037ms returns 0x00
T16E0 000:417.914 JLINK_ReadReg(R0)
T16E0 000:417.939 - 0.036ms returns 0x00000001
T16E0 000:417.967 JLINK_HasError()
T16E0 000:417.995 JLINK_WriteReg(R0, 0x08000000)
T16E0 000:418.022 - 0.038ms returns 0
T16E0 000:418.049 JLINK_WriteReg(R1, 0x00000400)
T16E0 000:418.074 - 0.037ms returns 0
T16E0 000:418.102 JLINK_WriteReg(R2, 0x000000FF)
T16E0 000:418.126 - 0.036ms returns 0
T16E0 000:418.153 JLINK_WriteReg(R3, 0x00000000)
T16E0 000:418.178 - 0.036ms returns 0
T16E0 000:418.280 JLINK_WriteReg(R4, 0x00000000)
T16E0 000:418.313 - 0.045ms returns 0
T16E0 000:418.341 JLINK_WriteReg(R5, 0x00000000)
T16E0 000:418.366 - 0.036ms returns 0
T16E0 000:418.393 JLINK_WriteReg(R6, 0x00000000)
T16E0 000:418.417 - 0.036ms returns 0
T16E0 000:418.445 JLINK_WriteReg(R7, 0x00000000)
T16E0 000:418.469 - 0.036ms returns 0
T16E0 000:418.496 JLINK_WriteReg(R8, 0x00000000)
T16E0 000:418.522 - 0.037ms returns 0
T16E0 000:418.549 JLINK_WriteReg(R9, 0x20000230)
T16E0 000:418.574 - 0.036ms returns 0
T16E0 000:418.601 JLINK_WriteReg(R10, 0x00000000)
T16E0 000:418.626 - 0.041ms returns 0
T16E0 000:418.659 JLINK_WriteReg(R11, 0x00000000)
T16E0 000:418.684 - 0.037ms returns 0
T16E0 000:418.711 JLINK_WriteReg(R12, 0x00000000)
T16E0 000:418.736 - 0.036ms returns 0
T16E0 000:418.763 JLINK_WriteReg(R13 (SP), 0x20001000)
T16E0 000:418.789 - 0.037ms returns 0
T16E0 000:418.817 JLINK_WriteReg(R14, 0x20000001)
T16E0 000:418.841 - 0.036ms returns 0
T16E0 000:418.869 JLINK_WriteReg(R15 (PC), 0x20000166)
T16E0 000:418.894 - 0.037ms returns 0
T16E0 000:418.921 JLINK_WriteReg(XPSR, 0x01000000)
T16E0 000:418.947 - 0.036ms returns 0
T16E0 000:418.974 JLINK_WriteReg(MSP, 0x20001000)
T16E0 000:418.998 - 0.036ms returns 0
T16E0 000:419.026 JLINK_WriteReg(PSP, 0x20001000)
T16E0 000:419.051 - 0.036ms returns 0
T16E0 000:419.078 JLINK_WriteReg(CFBP, 0x00000000)
T16E0 000:419.103 - 0.036ms returns 0
T16E0 000:419.130 JLINK_SetBPEx(Addr = 0x20000000, Type = 0xFFFFFFF2)
T16E0 000:419.158 - 0.039ms returns 0x00000003
T16E0 000:419.186 JLINK_Go()
T16E0 000:419.226   CPU_ReadMem(4 bytes @ 0xE0001000)
T16E0 000:420.516   CPU_WriteMem(4 bytes @ 0xE0001000)
T16E0 000:424.535 - 5.391ms
T16E0 000:424.602 JLINK_IsHalted()
T16E0 000:425.535 - 0.974ms returns FALSE
T16E0 000:425.602 JLINK_HasError()
T16E0 000:448.727 JLINK_IsHalted()
T16E0 000:452.062   CPU_ReadMem(2 bytes @ 0x20000000)
T16E0 000:453.048 - 4.347ms returns TRUE
T16E0 000:453.084 JLINK_ReadReg(R15 (PC))
T16E0 000:453.094 - 0.013ms returns 0x20000000
T16E0 000:453.102 JLINK_ClrBPEx(BPHandle = 0x00000003)
T16E0 000:453.109 - 0.009ms returns 0x00
T16E0 000:453.116 JLINK_ReadReg(R0)
T16E0 000:453.122 - 0.009ms returns 0x00000000
T16E0 000:453.477 JLINK_HasError()
T16E0 000:453.492 JLINK_WriteReg(R0, 0x08000400)
T16E0 000:453.500 - 0.010ms returns 0
T16E0 000:453.507 JLINK_WriteReg(R1, 0x00000400)
T16E0 000:453.513 - 0.009ms returns 0
T16E0 000:453.520 JLINK_WriteReg(R2, 0x000000FF)
T16E0 000:453.526 - 0.009ms returns 0
T16E0 000:453.533 JLINK_WriteReg(R3, 0x00000000)
T16E0 000:453.539 - 0.008ms returns 0
T16E0 000:453.545 JLINK_WriteReg(R4, 0x00000000)
T16E0 000:453.552 - 0.008ms returns 0
T16E0 000:453.558 JLINK_WriteReg(R5, 0x00000000)
T16E0 000:453.564 - 0.008ms returns 0
T16E0 000:453.571 JLINK_WriteReg(R6, 0x00000000)
T16E0 000:453.577 - 0.008ms returns 0
T16E0 000:453.583 JLINK_WriteReg(R7, 0x00000000)
T16E0 000:453.617 - 0.037ms returns 0
T16E0 000:453.624 JLINK_WriteReg(R8, 0x00000000)
T16E0 000:453.631 - 0.009ms returns 0
T16E0 000:453.638 JLINK_WriteReg(R9, 0x20000230)
T16E0 000:453.644 - 0.009ms returns 0
T16E0 000:453.651 JLINK_WriteReg(R10, 0x00000000)
T16E0 000:453.657 - 0.009ms returns 0
T16E0 000:453.663 JLINK_WriteReg(R11, 0x00000000)
T16E0 000:453.670 - 0.009ms returns 0
T16E0 000:453.676 JLINK_WriteReg(R12, 0x00000000)
T16E0 000:453.682 - 0.009ms returns 0
T16E0 000:453.689 JLINK_WriteReg(R13 (SP), 0x20001000)
T16E0 000:453.695 - 0.009ms returns 0
T16E0 000:453.702 JLINK_WriteReg(R14, 0x20000001)
T16E0 000:453.708 - 0.009ms returns 0
T16E0 000:453.715 JLINK_WriteReg(R15 (PC), 0x200001A8)
T16E0 000:453.721 - 0.009ms returns 0
T16E0 000:453.727 JLINK_WriteReg(XPSR, 0x01000000)
T16E0 000:453.734 - 0.009ms returns 0
T16E0 000:453.740 JLINK_WriteReg(MSP, 0x20001000)
T16E0 000:453.746 - 0.009ms returns 0
T16E0 000:453.753 JLINK_WriteReg(PSP, 0x20001000)
T16E0 000:453.759 - 0.008ms returns 0
T16E0 000:453.766 JLINK_WriteReg(CFBP, 0x00000000)
T16E0 000:453.772 - 0.008ms returns 0
T16E0 000:453.781 JLINK_SetBPEx(Addr = 0x20000000, Type = 0xFFFFFFF2)
T16E0 000:453.791 - 0.012ms returns 0x00000004
T16E0 000:453.798 JLINK_Go()
T16E0 000:453.811   CPU_ReadMem(4 bytes @ 0xE0001000)
T16E0 000:455.023   CPU_WriteMem(4 bytes @ 0xE0001000)
T16E0 000:459.025 - 5.237ms
T16E0 000:459.043 JLINK_IsHalted()
T16E0 000:462.027   CPU_ReadMem(2 bytes @ 0x20000000)
T16E0 000:463.023 - 3.990ms returns TRUE
T16E0 000:463.041 JLINK_ReadReg(R15 (PC))
T16E0 000:463.049 - 0.011ms returns 0x20000000
T16E0 000:463.057 JLINK_ClrBPEx(BPHandle = 0x00000004)
T16E0 000:463.063 - 0.009ms returns 0x00
T16E0 000:463.071 JLINK_ReadReg(R0)
T16E0 000:463.077 - 0.009ms returns 0x00000001
T16E0 000:463.084 JLINK_HasError()
T16E0 000:463.091 JLINK_WriteReg(R0, 0x08000400)
T16E0 000:463.098 - 0.009ms returns 0
T16E0 000:463.105 JLINK_WriteReg(R1, 0x00000400)
T16E0 000:463.112 - 0.009ms returns 0
T16E0 000:463.119 JLINK_WriteReg(R2, 0x000000FF)
T16E0 000:463.125 - 0.009ms returns 0
T16E0 000:463.132 JLINK_WriteReg(R3, 0x00000000)
T16E0 000:463.138 - 0.009ms returns 0
T16E0 000:463.145 JLINK_WriteReg(R4, 0x00000000)
T16E0 000:463.151 - 0.009ms returns 0
T16E0 000:463.158 JLINK_WriteReg(R5, 0x00000000)
T16E0 000:463.164 - 0.009ms returns 0
T16E0 000:463.172 JLINK_WriteReg(R6, 0x00000000)
T16E0 000:463.178 - 0.009ms returns 0
T16E0 000:463.185 JLINK_WriteReg(R7, 0x00000000)
T16E0 000:463.191 - 0.009ms returns 0
T16E0 000:463.198 JLINK_WriteReg(R8, 0x00000000)
T16E0 000:463.204 - 0.008ms returns 0
T16E0 000:463.211 JLINK_WriteReg(R9, 0x20000230)
T16E0 000:463.217 - 0.009ms returns 0
T16E0 000:463.224 JLINK_WriteReg(R10, 0x00000000)
T16E0 000:463.230 - 0.009ms returns 0
T16E0 000:463.237 JLINK_WriteReg(R11, 0x00000000)
T16E0 000:463.244 - 0.010ms returns 0
T16E0 000:463.251 JLINK_WriteReg(R12, 0x00000000)
T16E0 000:463.257 - 0.009ms returns 0
T16E0 000:463.264 JLINK_WriteReg(R13 (SP), 0x20001000)
T16E0 000:463.271 - 0.009ms returns 0
T16E0 000:463.278 JLINK_WriteReg(R14, 0x20000001)
T16E0 000:463.284 - 0.009ms returns 0
T16E0 000:463.291 JLINK_WriteReg(R15 (PC), 0x20000166)
T16E0 000:463.297 - 0.009ms returns 0
T16E0 000:463.304 JLINK_WriteReg(XPSR, 0x01000000)
T16E0 000:463.310 - 0.009ms returns 0
T16E0 000:463.317 JLINK_WriteReg(MSP, 0x20001000)
T16E0 000:463.323 - 0.009ms returns 0
T16E0 000:463.330 JLINK_WriteReg(PSP, 0x20001000)
T16E0 000:463.336 - 0.009ms returns 0
T16E0 000:463.344 JLINK_WriteReg(CFBP, 0x00000000)
T16E0 000:463.350 - 0.009ms returns 0
T16E0 000:463.357 JLINK_SetBPEx(Addr = 0x20000000, Type = 0xFFFFFFF2)
T16E0 000:463.364 - 0.009ms returns 0x00000005
T16E0 000:463.370 JLINK_Go()
T16E0 000:463.381   CPU_ReadMem(4 bytes @ 0xE0001000)
T16E0 000:464.024   CPU_WriteMem(4 bytes @ 0xE0001000)
T16E0 000:468.022 - 4.661ms
T16E0 000:468.039 JLINK_IsHalted()
T16E0 000:469.008 - 0.979ms returns FALSE
T16E0 000:469.025 JLINK_HasError()
T16E0 000:469.636 JLINK_IsHalted()
T16E0 000:470.015 - 0.388ms returns FALSE
T16E0 000:470.031 JLINK_HasError()
T16E0 000:470.678 JLINK_IsHalted()
T16E0 000:471.011 - 0.343ms returns FALSE
T16E0 000:471.027 JLINK_HasError()
T16E0 000:471.647 JLINK_IsHalted()
T16E0 000:472.008 - 0.371ms returns FALSE
T16E0 000:472.024 JLINK_HasError()
T16E0 000:472.647 JLINK_IsHalted()
T16E0 000:473.036 - 0.399ms returns FALSE
T16E0 000:473.053 JLINK_HasError()
T16E0 000:473.648 JLINK_IsHalted()
T16E0 000:474.036 - 0.398ms returns FALSE
T16E0 000:474.052 JLINK_HasError()
T16E0 000:474.647 JLINK_IsHalted()
T16E0 000:475.036 - 0.399ms returns FALSE
T16E0 000:475.052 JLINK_HasError()
T16E0 000:475.647 JLINK_IsHalted()
T16E0 000:476.037 - 0.400ms returns FALSE
T16E0 000:476.053 JLINK_HasError()
T16E0 000:476.652 JLINK_IsHalted()
T16E0 000:480.082   CPU_ReadMem(2 bytes @ 0x20000000)
T16E0 000:481.061 - 4.451ms returns TRUE
T16E0 000:481.129 JLINK_ReadReg(R15 (PC))
T16E0 000:481.162 - 0.045ms returns 0x20000000
T16E0 000:481.192 JLINK_ClrBPEx(BPHandle = 0x00000005)
T16E0 000:481.218 - 0.037ms returns 0x00
T16E0 000:481.246 JLINK_ReadReg(R0)
T16E0 000:481.279 - 0.049ms returns 0x00000000
T16E0 000:482.251 JLINK_HasError()
T16E0 000:482.307 JLINK_WriteReg(R0, 0x08000800)
T16E0 000:482.340 - 0.044ms returns 0
T16E0 000:482.368 JLINK_WriteReg(R1, 0x00000400)
T16E0 000:482.394 - 0.037ms returns 0
T16E0 000:482.422 JLINK_WriteReg(R2, 0x000000FF)
T16E0 000:482.447 - 0.037ms returns 0
T16E0 000:482.474 JLINK_WriteReg(R3, 0x00000000)
T16E0 000:482.499 - 0.036ms returns 0
T16E0 000:482.526 JLINK_WriteReg(R4, 0x00000000)
T16E0 000:482.551 - 0.036ms returns 0
T16E0 000:482.578 JLINK_WriteReg(R5, 0x00000000)
T16E0 000:482.603 - 0.036ms returns 0
T16E0 000:482.637 JLINK_WriteReg(R6, 0x00000000)
T16E0 000:482.662 - 0.037ms returns 0
T16E0 000:482.690 JLINK_WriteReg(R7, 0x00000000)
T16E0 000:482.714 - 0.036ms returns 0
T16E0 000:482.741 JLINK_WriteReg(R8, 0x00000000)
T16E0 000:482.766 - 0.036ms returns 0
T16E0 000:482.793 JLINK_WriteReg(R9, 0x20000230)
T16E0 000:482.817 - 0.036ms returns 0
T16E0 000:482.845 JLINK_WriteReg(R10, 0x00000000)
T16E0 000:482.870 - 0.036ms returns 0
T16E0 000:482.896 JLINK_WriteReg(R11, 0x00000000)
T16E0 000:482.921 - 0.036ms returns 0
T16E0 000:482.948 JLINK_WriteReg(R12, 0x00000000)
T16E0 000:482.973 - 0.036ms returns 0
T16E0 000:482.999 JLINK_WriteReg(R13 (SP), 0x20001000)
T16E0 000:483.026 - 0.038ms returns 0
T16E0 000:483.053 JLINK_WriteReg(R14, 0x20000001)
T16E0 000:483.077 - 0.036ms returns 0
T16E0 000:483.105 JLINK_WriteReg(R15 (PC), 0x200001A8)
T16E0 000:483.130 - 0.037ms returns 0
T16E0 000:483.157 JLINK_WriteReg(XPSR, 0x01000000)
T16E0 000:483.182 - 0.036ms returns 0
T16E0 000:483.208 JLINK_WriteReg(MSP, 0x20001000)
T16E0 000:483.236 - 0.039ms returns 0
T16E0 000:483.263 JLINK_WriteReg(PSP, 0x20001000)
T16E0 000:483.289 - 0.036ms returns 0
T16E0 000:483.315 JLINK_WriteReg(CFBP, 0x00000000)
T16E0 000:483.340 - 0.036ms returns 0
T16E0 000:483.367 JLINK_SetBPEx(Addr = 0x20000000, Type = 0xFFFFFFF2)
T16E0 000:483.395 - 0.040ms returns 0x00000006
T16E0 000:483.423 JLINK_Go()
T16E0 000:483.466   CPU_ReadMem(4 bytes @ 0xE0001000)
T16E0 000:484.786   CPU_WriteMem(4 bytes @ 0xE0001000)
T16E0 000:488.815 - 5.435ms
T16E0 000:488.882 JLINK_IsHalted()
T16E0 000:491.789   CPU_ReadMem(2 bytes @ 0x20000000)
T16E0 000:492.794 - 3.955ms returns TRUE
T16E0 000:492.864 JLINK_ReadReg(R15 (PC))
T16E0 000:492.897 - 0.046ms returns 0x20000000
T16E0 000:492.927 JLINK_ClrBPEx(BPHandle = 0x00000006)
T16E0 000:492.953 - 0.038ms returns 0x00
T16E0 000:492.982 JLINK_ReadReg(R0)
T16E0 000:493.007 - 0.036ms returns 0x00000001
T16E0 000:493.035 JLINK_HasError()
T16E0 000:493.063 JLINK_WriteReg(R0, 0x08000800)
T16E0 000:493.090 - 0.039ms returns 0
T16E0 000:493.118 JLINK_WriteReg(R1, 0x00000400)
T16E0 000:493.143 - 0.036ms returns 0
T16E0 000:493.170 JLINK_WriteReg(R2, 0x000000FF)
T16E0 000:493.195 - 0.036ms returns 0
T16E0 000:493.222 JLINK_WriteReg(R3, 0x00000000)
T16E0 000:493.247 - 0.036ms returns 0
T16E0 000:493.274 JLINK_WriteReg(R4, 0x00000000)
T16E0 000:493.299 - 0.037ms returns 0
T16E0 000:493.326 JLINK_WriteReg(R5, 0x00000000)
T16E0 000:493.351 - 0.036ms returns 0
T16E0 000:493.378 JLINK_WriteReg(R6, 0x00000000)
T16E0 000:493.403 - 0.036ms returns 0
T16E0 000:493.430 JLINK_WriteReg(R7, 0x00000000)
T16E0 000:493.455 - 0.037ms returns 0
T16E0 000:493.482 JLINK_WriteReg(R8, 0x00000000)
T16E0 000:493.507 - 0.036ms returns 0
T16E0 000:493.534 JLINK_WriteReg(R9, 0x20000230)
T16E0 000:493.559 - 0.036ms returns 0
T16E0 000:493.586 JLINK_WriteReg(R10, 0x00000000)
T16E0 000:493.611 - 0.037ms returns 0
T16E0 000:493.638 JLINK_WriteReg(R11, 0x00000000)
T16E0 000:493.669 - 0.043ms returns 0
T16E0 000:493.701 JLINK_WriteReg(R12, 0x00000000)
T16E0 000:493.727 - 0.037ms returns 0
T16E0 000:493.803 JLINK_WriteReg(R13 (SP), 0x20001000)
T16E0 000:493.833 - 0.041ms returns 0
T16E0 000:493.863 JLINK_WriteReg(R14, 0x20000001)
T16E0 000:493.889 - 0.037ms returns 0
T16E0 000:493.918 JLINK_WriteReg(R15 (PC), 0x20000166)
T16E0 000:493.944 - 0.037ms returns 0
T16E0 000:493.974 JLINK_WriteReg(XPSR, 0x01000000)
T16E0 000:494.007 - 0.049ms returns 0
T16E0 000:494.042 JLINK_WriteReg(MSP, 0x20001000)
T16E0 000:494.067 - 0.037ms returns 0
T16E0 000:494.096 JLINK_WriteReg(PSP, 0x20001000)
T16E0 000:494.122 - 0.036ms returns 0
T16E0 000:494.151 JLINK_WriteReg(CFBP, 0x00000000)
T16E0 000:494.176 - 0.036ms returns 0
T16E0 000:494.205 JLINK_SetBPEx(Addr = 0x20000000, Type = 0xFFFFFFF2)
T16E0 000:494.233 - 0.039ms returns 0x00000007
T16E0 000:494.263 JLINK_Go()
T16E0 000:494.307   CPU_ReadMem(4 bytes @ 0xE0001000)
T16E0 000:495.621   CPU_WriteMem(4 bytes @ 0xE0001000)
T16E0 000:499.628 - 5.411ms
T16E0 000:499.704 JLINK_IsHalted()
T16E0 000:500.621 - 0.962ms returns FALSE
T16E0 000:500.695 JLINK_HasError()
T16E0 000:501.696 JLINK_IsHalted()
T16E0 000:503.058 - 1.403ms returns FALSE
T16E0 000:503.126 JLINK_HasError()
T16E0 000:503.670 JLINK_IsHalted()
T16E0 000:505.084 - 1.457ms returns FALSE
T16E0 000:505.152 JLINK_HasError()
T16E0 000:505.697 JLINK_IsHalted()
T16E0 000:507.070 - 1.416ms returns FALSE
T16E0 000:507.138 JLINK_HasError()
T16E0 000:507.697 JLINK_IsHalted()
T16E0 000:509.086 - 1.432ms returns FALSE
T16E0 000:509.155 JLINK_HasError()
T16E0 000:509.696 JLINK_IsHalted()
T16E0 000:513.114   CPU_ReadMem(2 bytes @ 0x20000000)
T16E0 000:514.102 - 4.448ms returns TRUE
T16E0 000:514.169 JLINK_ReadReg(R15 (PC))
T16E0 000:514.202 - 0.045ms returns 0x20000000
T16E0 000:514.232 JLINK_ClrBPEx(BPHandle = 0x00000007)
T16E0 000:514.258 - 0.038ms returns 0x00
T16E0 000:514.286 JLINK_ReadReg(R0)
T16E0 000:514.313 - 0.039ms returns 0x00000000
T16E0 000:515.298 JLINK_HasError()
T16E0 000:515.355 JLINK_WriteReg(R0, 0x08000C00)
T16E0 000:515.388 - 0.045ms returns 0
T16E0 000:515.417 JLINK_WriteReg(R1, 0x00000400)
T16E0 000:515.442 - 0.037ms returns 0
T16E0 000:515.469 JLINK_WriteReg(R2, 0x000000FF)
T16E0 000:515.494 - 0.036ms returns 0
T16E0 000:515.521 JLINK_WriteReg(R3, 0x00000000)
T16E0 000:515.546 - 0.036ms returns 0
T16E0 000:515.573 JLINK_WriteReg(R4, 0x00000000)
T16E0 000:515.598 - 0.036ms returns 0
T16E0 000:515.625 JLINK_WriteReg(R5, 0x00000000)
T16E0 000:515.652 - 0.039ms returns 0
T16E0 000:515.679 JLINK_WriteReg(R6, 0x00000000)
T16E0 000:515.705 - 0.036ms returns 0
T16E0 000:515.732 JLINK_WriteReg(R7, 0x00000000)
T16E0 000:515.757 - 0.036ms returns 0
T16E0 000:515.784 JLINK_WriteReg(R8, 0x00000000)
T16E0 000:515.808 - 0.036ms returns 0
T16E0 000:515.835 JLINK_WriteReg(R9, 0x20000230)
T16E0 000:515.860 - 0.036ms returns 0
T16E0 000:515.887 JLINK_WriteReg(R10, 0x00000000)
T16E0 000:515.911 - 0.036ms returns 0
T16E0 000:515.938 JLINK_WriteReg(R11, 0x00000000)
T16E0 000:515.963 - 0.036ms returns 0
T16E0 000:515.990 JLINK_WriteReg(R12, 0x00000000)
T16E0 000:516.014 - 0.035ms returns 0
T16E0 000:516.041 JLINK_WriteReg(R13 (SP), 0x20001000)
T16E0 000:516.067 - 0.038ms returns 0
T16E0 000:516.094 JLINK_WriteReg(R14, 0x20000001)
T16E0 000:516.119 - 0.036ms returns 0
T16E0 000:516.146 JLINK_WriteReg(R15 (PC), 0x200001A8)
T16E0 000:516.171 - 0.036ms returns 0
T16E0 000:516.198 JLINK_WriteReg(XPSR, 0x01000000)
T16E0 000:516.222 - 0.036ms returns 0
T16E0 000:516.249 JLINK_WriteReg(MSP, 0x20001000)
T16E0 000:516.274 - 0.036ms returns 0
T16E0 000:516.301 JLINK_WriteReg(PSP, 0x20001000)
T16E0 000:516.326 - 0.036ms returns 0
T16E0 000:516.352 JLINK_WriteReg(CFBP, 0x00000000)
T16E0 000:516.377 - 0.036ms returns 0
T16E0 000:516.404 JLINK_SetBPEx(Addr = 0x20000000, Type = 0xFFFFFFF2)
T16E0 000:516.432 - 0.039ms returns 0x00000008
T16E0 000:516.460 JLINK_Go()
T16E0 000:516.503   CPU_ReadMem(4 bytes @ 0xE0001000)
T16E0 000:517.804   CPU_WriteMem(4 bytes @ 0xE0001000)
T16E0 000:521.816 - 5.399ms
T16E0 000:521.884 JLINK_IsHalted()
T16E0 000:524.834   CPU_ReadMem(2 bytes @ 0x20000000)
T16E0 000:525.806 - 3.964ms returns TRUE
T16E0 000:525.878 JLINK_ReadReg(R15 (PC))
T16E0 000:525.911 - 0.045ms returns 0x20000000
T16E0 000:525.942 JLINK_ClrBPEx(BPHandle = 0x00000008)
T16E0 000:525.969 - 0.037ms returns 0x00
T16E0 000:525.999 JLINK_ReadReg(R0)
T16E0 000:526.096 - 0.117ms returns 0x00000001
T16E0 000:526.136 JLINK_HasError()
T16E0 000:526.165 JLINK_WriteReg(R0, 0x08000C00)
T16E0 000:526.192 - 0.039ms returns 0
T16E0 000:526.222 JLINK_WriteReg(R1, 0x00000400)
T16E0 000:526.247 - 0.037ms returns 0
T16E0 000:526.277 JLINK_WriteReg(R2, 0x000000FF)
T16E0 000:526.302 - 0.036ms returns 0
T16E0 000:526.331 JLINK_WriteReg(R3, 0x00000000)
T16E0 000:526.356 - 0.036ms returns 0
T16E0 000:526.385 JLINK_WriteReg(R4, 0x00000000)
T16E0 000:526.410 - 0.036ms returns 0
T16E0 000:526.439 JLINK_WriteReg(R5, 0x00000000)
T16E0 000:526.464 - 0.036ms returns 0
T16E0 000:526.493 JLINK_WriteReg(R6, 0x00000000)
T16E0 000:526.518 - 0.036ms returns 0
T16E0 000:526.547 JLINK_WriteReg(R7, 0x00000000)
T16E0 000:526.572 - 0.035ms returns 0
T16E0 000:526.601 JLINK_WriteReg(R8, 0x00000000)
T16E0 000:526.626 - 0.036ms returns 0
T16E0 000:526.660 JLINK_WriteReg(R9, 0x20000230)
T16E0 000:526.686 - 0.037ms returns 0
T16E0 000:526.715 JLINK_WriteReg(R10, 0x00000000)
T16E0 000:526.740 - 0.036ms returns 0
T16E0 000:526.770 JLINK_WriteReg(R11, 0x00000000)
T16E0 000:526.795 - 0.036ms returns 0
T16E0 000:526.824 JLINK_WriteReg(R12, 0x00000000)
T16E0 000:526.849 - 0.036ms returns 0
T16E0 000:526.878 JLINK_WriteReg(R13 (SP), 0x20001000)
T16E0 000:526.904 - 0.037ms returns 0
T16E0 000:526.933 JLINK_WriteReg(R14, 0x20000001)
T16E0 000:526.958 - 0.036ms returns 0
T16E0 000:526.988 JLINK_WriteReg(R15 (PC), 0x20000166)
T16E0 000:527.012 - 0.036ms returns 0
T16E0 000:527.042 JLINK_WriteReg(XPSR, 0x01000000)
T16E0 000:527.067 - 0.036ms returns 0
T16E0 000:527.096 JLINK_WriteReg(MSP, 0x20001000)
T16E0 000:527.123 - 0.038ms returns 0
T16E0 000:527.152 JLINK_WriteReg(PSP, 0x20001000)
T16E0 000:527.178 - 0.037ms returns 0
T16E0 000:527.207 JLINK_WriteReg(CFBP, 0x00000000)
T16E0 000:527.231 - 0.036ms returns 0
T16E0 000:527.261 JLINK_SetBPEx(Addr = 0x20000000, Type = 0xFFFFFFF2)
T16E0 000:527.288 - 0.143ms returns 0x00000009
T16E0 000:527.435 JLINK_Go()
T16E0 000:527.483   CPU_ReadMem(4 bytes @ 0xE0001000)
T16E0 000:528.848   CPU_WriteMem(4 bytes @ 0xE0001000)
T16E0 000:532.793 - 5.401ms
T16E0 000:532.866 JLINK_IsHalted()
T16E0 000:533.788 - 0.965ms returns FALSE
T16E0 000:533.861 JLINK_HasError()
T16E0 000:538.711 JLINK_IsHalted()
T16E0 000:540.082 - 1.414ms returns FALSE
T16E0 000:540.150 JLINK_HasError()
T16E0 000:540.713 JLINK_IsHalted()
T16E0 000:542.080 - 1.410ms returns FALSE
T16E0 000:542.148 JLINK_HasError()
T16E0 000:542.697 JLINK_IsHalted()
T16E0 000:546.129   CPU_ReadMem(2 bytes @ 0x20000000)
T16E0 000:547.089 - 4.434ms returns TRUE
T16E0 000:547.157 JLINK_ReadReg(R15 (PC))
T16E0 000:547.191 - 0.046ms returns 0x20000000
T16E0 000:547.220 JLINK_ClrBPEx(BPHandle = 0x00000009)
T16E0 000:547.246 - 0.037ms returns 0x00
T16E0 000:547.274 JLINK_ReadReg(R0)
T16E0 000:547.299 - 0.059ms returns 0x00000000
T16E0 000:548.376 JLINK_HasError()
T16E0 000:548.437 JLINK_WriteReg(R0, 0x08001000)
T16E0 000:548.472 - 0.048ms returns 0
T16E0 000:548.502 JLINK_WriteReg(R1, 0x00000400)
T16E0 000:548.528 - 0.038ms returns 0
T16E0 000:548.556 JLINK_WriteReg(R2, 0x000000FF)
T16E0 000:548.581 - 0.037ms returns 0
T16E0 000:548.609 JLINK_WriteReg(R3, 0x00000000)
T16E0 000:548.639 - 0.041ms returns 0
T16E0 000:548.666 JLINK_WriteReg(R4, 0x00000000)
T16E0 000:548.692 - 0.037ms returns 0
T16E0 000:548.719 JLINK_WriteReg(R5, 0x00000000)
T16E0 000:548.744 - 0.036ms returns 0
T16E0 000:548.772 JLINK_WriteReg(R6, 0x00000000)
T16E0 000:548.796 - 0.036ms returns 0
T16E0 000:548.823 JLINK_WriteReg(R7, 0x00000000)
T16E0 000:548.848 - 0.036ms returns 0
T16E0 000:548.876 JLINK_WriteReg(R8, 0x00000000)
T16E0 000:548.901 - 0.036ms returns 0
T16E0 000:548.928 JLINK_WriteReg(R9, 0x20000230)
T16E0 000:548.953 - 0.036ms returns 0
T16E0 000:548.980 JLINK_WriteReg(R10, 0x00000000)
T16E0 000:549.004 - 0.037ms returns 0
T16E0 000:549.032 JLINK_WriteReg(R11, 0x00000000)
T16E0 000:549.056 - 0.036ms returns 0
T16E0 000:549.083 JLINK_WriteReg(R12, 0x00000000)
T16E0 000:549.108 - 0.044ms returns 0
T16E0 000:549.149 JLINK_WriteReg(R13 (SP), 0x20001000)
T16E0 000:549.177 - 0.039ms returns 0
T16E0 000:549.204 JLINK_WriteReg(R14, 0x20000001)
T16E0 000:549.229 - 0.036ms returns 0
T16E0 000:549.256 JLINK_WriteReg(R15 (PC), 0x200001A8)
T16E0 000:549.282 - 0.037ms returns 0
T16E0 000:549.309 JLINK_WriteReg(XPSR, 0x01000000)
T16E0 000:549.334 - 0.036ms returns 0
T16E0 000:549.361 JLINK_WriteReg(MSP, 0x20001000)
T16E0 000:549.386 - 0.036ms returns 0
T16E0 000:549.413 JLINK_WriteReg(PSP, 0x20001000)
T16E0 000:549.438 - 0.036ms returns 0
T16E0 000:549.465 JLINK_WriteReg(CFBP, 0x00000000)
T16E0 000:549.490 - 0.036ms returns 0
T16E0 000:549.517 JLINK_SetBPEx(Addr = 0x20000000, Type = 0xFFFFFFF2)
T16E0 000:549.546 - 0.041ms returns 0x0000000A
T16E0 000:549.575 JLINK_Go()
T16E0 000:549.623   CPU_ReadMem(4 bytes @ 0xE0001000)
T16E0 000:550.947   CPU_WriteMem(4 bytes @ 0xE0001000)
T16E0 000:554.956 - 5.423ms
T16E0 000:555.023 JLINK_IsHalted()
T16E0 000:557.972   CPU_ReadMem(2 bytes @ 0x20000000)
T16E0 000:558.956 - 3.974ms returns TRUE
T16E0 000:559.027 JLINK_ReadReg(R15 (PC))
T16E0 000:559.060 - 0.045ms returns 0x20000000
T16E0 000:559.092 JLINK_ClrBPEx(BPHandle = 0x0000000A)
T16E0 000:559.118 - 0.038ms returns 0x00
T16E0 000:559.148 JLINK_ReadReg(R0)
T16E0 000:559.173 - 0.036ms returns 0x00000001
T16E0 000:559.204 JLINK_HasError()
T16E0 000:559.235 JLINK_WriteReg(R0, 0x08001000)
T16E0 000:559.262 - 0.039ms returns 0
T16E0 000:559.292 JLINK_WriteReg(R1, 0x00000400)
T16E0 000:559.316 - 0.037ms returns 0
T16E0 000:559.346 JLINK_WriteReg(R2, 0x000000FF)
T16E0 000:559.373 - 0.039ms returns 0
T16E0 000:559.403 JLINK_WriteReg(R3, 0x00000000)
T16E0 000:559.429 - 0.037ms returns 0
T16E0 000:559.458 JLINK_WriteReg(R4, 0x00000000)
T16E0 000:559.608 - 0.162ms returns 0
T16E0 000:559.641 JLINK_WriteReg(R5, 0x00000000)
T16E0 000:559.669 - 0.040ms returns 0
T16E0 000:559.699 JLINK_WriteReg(R6, 0x00000000)
T16E0 000:559.724 - 0.036ms returns 0
T16E0 000:559.752 JLINK_WriteReg(R7, 0x00000000)
T16E0 000:559.777 - 0.036ms returns 0
T16E0 000:559.807 JLINK_WriteReg(R8, 0x00000000)
T16E0 000:559.832 - 0.036ms returns 0
T16E0 000:559.861 JLINK_WriteReg(R9, 0x20000230)
T16E0 000:559.886 - 0.036ms returns 0
T16E0 000:559.915 JLINK_WriteReg(R10, 0x00000000)
T16E0 000:559.940 - 0.036ms returns 0
T16E0 000:559.970 JLINK_WriteReg(R11, 0x00000000)
T16E0 000:559.996 - 0.037ms returns 0
T16E0 000:560.025 JLINK_WriteReg(R12, 0x00000000)
T16E0 000:560.050 - 0.036ms returns 0
T16E0 000:560.079 JLINK_WriteReg(R13 (SP), 0x20001000)
T16E0 000:560.105 - 0.038ms returns 0
T16E0 000:560.135 JLINK_WriteReg(R14, 0x20000001)
T16E0 000:560.160 - 0.036ms returns 0
T16E0 000:560.189 JLINK_WriteReg(R15 (PC), 0x20000166)
T16E0 000:560.215 - 0.037ms returns 0
T16E0 000:560.244 JLINK_WriteReg(XPSR, 0x01000000)
T16E0 000:560.269 - 0.036ms returns 0
T16E0 000:560.299 JLINK_WriteReg(MSP, 0x20001000)
T16E0 000:560.323 - 0.037ms returns 0
T16E0 000:560.353 JLINK_WriteReg(PSP, 0x20001000)
T16E0 000:560.378 - 0.037ms returns 0
T16E0 000:560.407 JLINK_WriteReg(CFBP, 0x00000000)
T16E0 000:560.432 - 0.036ms returns 0
T16E0 000:560.462 JLINK_SetBPEx(Addr = 0x20000000, Type = 0xFFFFFFF2)
T16E0 000:560.490 - 0.039ms returns 0x0000000B
T16E0 000:560.520 JLINK_Go()
T16E0 000:560.563   CPU_ReadMem(4 bytes @ 0xE0001000)
T16E0 000:561.862   CPU_WriteMem(4 bytes @ 0xE0001000)
T16E0 000:565.872 - 5.395ms
T16E0 000:565.943 JLINK_IsHalted()
T16E0 000:566.857 - 0.956ms returns FALSE
T16E0 000:566.929 JLINK_HasError()
T16E0 000:570.723 JLINK_IsHalted()
T16E0 000:572.027 - 1.346ms returns FALSE
T16E0 000:572.095 JLINK_HasError()
T16E0 000:572.710 JLINK_IsHalted()
T16E0 000:574.039 - 1.372ms returns FALSE
T16E0 000:574.107 JLINK_HasError()
T16E0 000:574.734 JLINK_IsHalted()
T16E0 000:578.093   CPU_ReadMem(2 bytes @ 0x20000000)
T16E0 000:579.070 - 4.378ms returns TRUE
T16E0 000:579.138 JLINK_ReadReg(R15 (PC))
T16E0 000:579.172 - 0.046ms returns 0x20000000
T16E0 000:579.201 JLINK_ClrBPEx(BPHandle = 0x0000000B)
T16E0 000:579.235 - 0.050ms returns 0x00
T16E0 000:579.268 JLINK_ReadReg(R0)
T16E0 000:579.293 - 0.037ms returns 0x00000000
T16E0 000:580.270 JLINK_HasError()
T16E0 000:580.327 JLINK_WriteReg(R0, 0x08001400)
T16E0 000:580.360 - 0.044ms returns 0
T16E0 000:580.389 JLINK_WriteReg(R1, 0x00000400)
T16E0 000:580.414 - 0.037ms returns 0
T16E0 000:580.442 JLINK_WriteReg(R2, 0x000000FF)
T16E0 000:580.467 - 0.036ms returns 0
T16E0 000:580.494 JLINK_WriteReg(R3, 0x00000000)
T16E0 000:580.519 - 0.036ms returns 0
T16E0 000:580.546 JLINK_WriteReg(R4, 0x00000000)
T16E0 000:580.571 - 0.036ms returns 0
T16E0 000:580.598 JLINK_WriteReg(R5, 0x00000000)
T16E0 000:580.622 - 0.036ms returns 0
T16E0 000:580.652 JLINK_WriteReg(R6, 0x00000000)
T16E0 000:580.677 - 0.060ms returns 0
T16E0 000:580.730 JLINK_WriteReg(R7, 0x00000000)
T16E0 000:580.756 - 0.037ms returns 0
T16E0 000:580.783 JLINK_WriteReg(R8, 0x00000000)
T16E0 000:580.808 - 0.036ms returns 0
T16E0 000:580.835 JLINK_WriteReg(R9, 0x20000230)
T16E0 000:580.860 - 0.036ms returns 0
T16E0 000:580.887 JLINK_WriteReg(R10, 0x00000000)
T16E0 000:580.912 - 0.037ms returns 0
T16E0 000:580.940 JLINK_WriteReg(R11, 0x00000000)
T16E0 000:580.964 - 0.036ms returns 0
T16E0 000:580.992 JLINK_WriteReg(R12, 0x00000000)
T16E0 000:581.016 - 0.036ms returns 0
T16E0 000:581.043 JLINK_WriteReg(R13 (SP), 0x20001000)
T16E0 000:581.070 - 0.038ms returns 0
T16E0 000:581.098 JLINK_WriteReg(R14, 0x20000001)
T16E0 000:581.122 - 0.036ms returns 0
T16E0 000:581.150 JLINK_WriteReg(R15 (PC), 0x200001A8)
T16E0 000:581.175 - 0.037ms returns 0
T16E0 000:581.202 JLINK_WriteReg(XPSR, 0x01000000)
T16E0 000:581.230 - 0.039ms returns 0
T16E0 000:581.257 JLINK_WriteReg(MSP, 0x20001000)
T16E0 000:581.283 - 0.037ms returns 0
T16E0 000:581.311 JLINK_WriteReg(PSP, 0x20001000)
T16E0 000:581.336 - 0.036ms returns 0
T16E0 000:581.362 JLINK_WriteReg(CFBP, 0x00000000)
T16E0 000:581.387 - 0.036ms returns 0
T16E0 000:581.415 JLINK_SetBPEx(Addr = 0x20000000, Type = 0xFFFFFFF2)
T16E0 000:581.443 - 0.040ms returns 0x0000000C
T16E0 000:581.470 JLINK_Go()
T16E0 000:581.514   CPU_ReadMem(4 bytes @ 0xE0001000)
T16E0 000:582.821   CPU_WriteMem(4 bytes @ 0xE0001000)
T16E0 000:586.837 - 5.408ms
T16E0 000:586.904 JLINK_IsHalted()
T16E0 000:589.851   CPU_ReadMem(2 bytes @ 0x20000000)
T16E0 000:590.812 - 3.950ms returns TRUE
T16E0 000:590.880 JLINK_ReadReg(R15 (PC))
T16E0 000:590.913 - 0.045ms returns 0x20000000
T16E0 000:590.943 JLINK_ClrBPEx(BPHandle = 0x0000000C)
T16E0 000:590.969 - 0.037ms returns 0x00
T16E0 000:590.997 JLINK_ReadReg(R0)
T16E0 000:591.021 - 0.036ms returns 0x00000001
T16E0 000:591.049 JLINK_HasError()
T16E0 000:591.077 JLINK_WriteReg(R0, 0x08001400)
T16E0 000:591.104 - 0.038ms returns 0
T16E0 000:591.131 JLINK_WriteReg(R1, 0x00000400)
T16E0 000:591.156 - 0.036ms returns 0
T16E0 000:591.183 JLINK_WriteReg(R2, 0x000000FF)
T16E0 000:591.208 - 0.036ms returns 0
T16E0 000:591.234 JLINK_WriteReg(R3, 0x00000000)
T16E0 000:591.259 - 0.036ms returns 0
T16E0 000:591.286 JLINK_WriteReg(R4, 0x00000000)
T16E0 000:591.311 - 0.036ms returns 0
T16E0 000:591.337 JLINK_WriteReg(R5, 0x00000000)
T16E0 000:591.362 - 0.036ms returns 0
T16E0 000:591.389 JLINK_WriteReg(R6, 0x00000000)
T16E0 000:591.413 - 0.035ms returns 0
T16E0 000:591.440 JLINK_WriteReg(R7, 0x00000000)
T16E0 000:591.464 - 0.035ms returns 0
T16E0 000:591.491 JLINK_WriteReg(R8, 0x00000000)
T16E0 000:591.516 - 0.036ms returns 0
T16E0 000:591.543 JLINK_WriteReg(R9, 0x20000230)
T16E0 000:591.567 - 0.036ms returns 0
T16E0 000:591.594 JLINK_WriteReg(R10, 0x00000000)
T16E0 000:591.619 - 0.036ms returns 0
T16E0 000:591.652 JLINK_WriteReg(R11, 0x00000000)
T16E0 000:591.677 - 0.067ms returns 0
T16E0 000:591.785 JLINK_WriteReg(R12, 0x00000000)
T16E0 000:591.824 - 0.051ms returns 0
T16E0 000:591.856 JLINK_WriteReg(R13 (SP), 0x20001000)
T16E0 000:591.883 - 0.039ms returns 0
T16E0 000:591.913 JLINK_WriteReg(R14, 0x20000001)
T16E0 000:591.939 - 0.037ms returns 0
T16E0 000:591.968 JLINK_WriteReg(R15 (PC), 0x20000166)
T16E0 000:592.001 - 0.049ms returns 0
T16E0 000:592.036 JLINK_WriteReg(XPSR, 0x01000000)
T16E0 000:592.061 - 0.037ms returns 0
T16E0 000:592.091 JLINK_WriteReg(MSP, 0x20001000)
T16E0 000:592.116 - 0.036ms returns 0
T16E0 000:592.145 JLINK_WriteReg(PSP, 0x20001000)
T16E0 000:592.170 - 0.036ms returns 0
T16E0 000:592.199 JLINK_WriteReg(CFBP, 0x00000000)
T16E0 000:592.223 - 0.036ms returns 0
T16E0 000:592.253 JLINK_SetBPEx(Addr = 0x20000000, Type = 0xFFFFFFF2)
T16E0 000:592.283 - 0.041ms returns 0x0000000D
T16E0 000:592.313 JLINK_Go()
T16E0 000:592.357   CPU_ReadMem(4 bytes @ 0xE0001000)
T16E0 000:593.610   CPU_WriteMem(4 bytes @ 0xE0001000)
T16E0 000:597.748 - 5.507ms
T16E0 000:597.859 JLINK_IsHalted()
T16E0 000:598.716 - 0.919ms returns FALSE
T16E0 000:598.816 JLINK_HasError()
T16E0 000:599.752 JLINK_IsHalted()
T16E0 000:601.285 - 1.597ms returns FALSE
T16E0 000:601.384 JLINK_HasError()
T16E0 000:601.744 JLINK_IsHalted()
T16E0 000:603.204 - 1.524ms returns FALSE
T16E0 000:603.305 JLINK_HasError()
T16E0 000:603.686 JLINK_IsHalted()
T16E0 000:604.204 - 0.561ms returns FALSE
T16E0 000:604.271 JLINK_HasError()
T16E0 000:604.725 JLINK_IsHalted()
T16E0 000:606.306 - 1.646ms returns FALSE
T16E0 000:606.404 JLINK_HasError()
T16E0 000:606.739 JLINK_IsHalted()
T16E0 000:610.370   CPU_ReadMem(2 bytes @ 0x20000000)
T16E0 000:611.338 - 4.667ms returns TRUE
T16E0 000:611.439 JLINK_ReadReg(R15 (PC))
T16E0 000:611.481 - 0.056ms returns 0x20000000
T16E0 000:611.516 JLINK_ClrBPEx(BPHandle = 0x0000000D)
T16E0 000:611.547 - 0.046ms returns 0x00
T16E0 000:611.581 JLINK_ReadReg(R0)
T16E0 000:611.614 - 0.048ms returns 0x00000000
T16E0 000:612.449 JLINK_HasError()
T16E0 000:612.512 JLINK_WriteReg(R0, 0x00000001)
T16E0 000:612.547 - 0.046ms returns 0
T16E0 000:612.575 JLINK_WriteReg(R1, 0x00000400)
T16E0 000:612.601 - 0.037ms returns 0
T16E0 000:612.628 JLINK_WriteReg(R2, 0x000000FF)
T16E0 000:612.659 - 0.043ms returns 0
T16E0 000:612.687 JLINK_WriteReg(R3, 0x00000000)
T16E0 000:612.712 - 0.036ms returns 0
T16E0 000:612.739 JLINK_WriteReg(R4, 0x00000000)
T16E0 000:612.763 - 0.036ms returns 0
T16E0 000:612.790 JLINK_WriteReg(R5, 0x00000000)
T16E0 000:612.815 - 0.036ms returns 0
T16E0 000:612.842 JLINK_WriteReg(R6, 0x00000000)
T16E0 000:612.866 - 0.035ms returns 0
T16E0 000:612.893 JLINK_WriteReg(R7, 0x00000000)
T16E0 000:612.919 - 0.036ms returns 0
T16E0 000:612.946 JLINK_WriteReg(R8, 0x00000000)
T16E0 000:612.970 - 0.036ms returns 0
T16E0 000:612.997 JLINK_WriteReg(R9, 0x20000230)
T16E0 000:613.022 - 0.036ms returns 0
T16E0 000:613.048 JLINK_WriteReg(R10, 0x00000000)
T16E0 000:613.073 - 0.036ms returns 0
T16E0 000:613.100 JLINK_WriteReg(R11, 0x00000000)
T16E0 000:613.125 - 0.036ms returns 0
T16E0 000:613.151 JLINK_WriteReg(R12, 0x00000000)
T16E0 000:613.176 - 0.036ms returns 0
T16E0 000:613.203 JLINK_WriteReg(R13 (SP), 0x20001000)
T16E0 000:613.229 - 0.037ms returns 0
T16E0 000:613.255 JLINK_WriteReg(R14, 0x20000001)
T16E0 000:613.280 - 0.036ms returns 0
T16E0 000:613.307 JLINK_WriteReg(R15 (PC), 0x2000005E)
T16E0 000:613.332 - 0.037ms returns 0
T16E0 000:613.359 JLINK_WriteReg(XPSR, 0x01000000)
T16E0 000:613.384 - 0.036ms returns 0
T16E0 000:613.411 JLINK_WriteReg(MSP, 0x20001000)
T16E0 000:613.436 - 0.036ms returns 0
T16E0 000:613.462 JLINK_WriteReg(PSP, 0x20001000)
T16E0 000:613.487 - 0.036ms returns 0
T16E0 000:613.514 JLINK_WriteReg(CFBP, 0x00000000)
T16E0 000:613.538 - 0.036ms returns 0
T16E0 000:613.566 JLINK_SetBPEx(Addr = 0x20000000, Type = 0xFFFFFFF2)
T16E0 000:613.594 - 0.040ms returns 0x0000000E
T16E0 000:613.622 JLINK_Go()
T16E0 000:613.674   CPU_ReadMem(4 bytes @ 0xE0001000)
T16E0 000:615.119   CPU_WriteMem(4 bytes @ 0xE0001000)
T16E0 000:619.114 - 5.559ms
T16E0 000:619.214 JLINK_IsHalted()
T16E0 000:622.135   CPU_ReadMem(2 bytes @ 0x20000000)
T16E0 000:623.066 - 3.895ms returns TRUE
T16E0 000:623.137 JLINK_ReadReg(R15 (PC))
T16E0 000:623.173 - 0.048ms returns 0x20000000
T16E0 000:623.202 JLINK_ClrBPEx(BPHandle = 0x0000000E)
T16E0 000:623.239 - 0.055ms returns 0x00
T16E0 000:623.274 JLINK_ReadReg(R0)
T16E0 000:623.299 - 0.037ms returns 0x00000000
T16E0 000:690.650 JLINK_WriteMem(0x20000000, 0x234 Bytes, ...)
T16E0 000:690.706   Data:  00 BE 0A E0 0D 78 2D 06 68 40 08 24 40 00 00 D3 ...
T16E0 000:690.773   CPU_WriteMem(564 bytes @ 0x20000000)
T16E0 000:693.357 - 2.750ms returns 0x234
T16E0 000:693.469 JLINK_HasError()
T16E0 000:693.503 JLINK_WriteReg(R0, 0x08000000)
T16E0 000:693.537 - 0.046ms returns 0
T16E0 000:693.565 JLINK_WriteReg(R1, 0x00B71B00)
T16E0 000:693.590 - 0.036ms returns 0
T16E0 000:693.618 JLINK_WriteReg(R2, 0x00000002)
T16E0 000:693.643 - 0.038ms returns 0
T16E0 000:693.672 JLINK_WriteReg(R3, 0x00000000)
T16E0 000:693.696 - 0.035ms returns 0
T16E0 000:693.723 JLINK_WriteReg(R4, 0x00000000)
T16E0 000:693.747 - 0.082ms returns 0
T16E0 000:693.822 JLINK_WriteReg(R5, 0x00000000)
T16E0 000:693.849 - 0.038ms returns 0
T16E0 000:693.876 JLINK_WriteReg(R6, 0x00000000)
T16E0 000:693.901 - 0.036ms returns 0
T16E0 000:693.927 JLINK_WriteReg(R7, 0x00000000)
T16E0 000:693.952 - 0.036ms returns 0
T16E0 000:693.978 JLINK_WriteReg(R8, 0x00000000)
T16E0 000:694.003 - 0.035ms returns 0
T16E0 000:694.029 JLINK_WriteReg(R9, 0x20000230)
T16E0 000:694.054 - 0.036ms returns 0
T16E0 000:694.080 JLINK_WriteReg(R10, 0x00000000)
T16E0 000:694.105 - 0.036ms returns 0
T16E0 000:694.132 JLINK_WriteReg(R11, 0x00000000)
T16E0 000:694.157 - 0.036ms returns 0
T16E0 000:694.183 JLINK_WriteReg(R12, 0x00000000)
T16E0 000:694.207 - 0.035ms returns 0
T16E0 000:694.234 JLINK_WriteReg(R13 (SP), 0x20001000)
T16E0 000:694.260 - 0.038ms returns 0
T16E0 000:694.287 JLINK_WriteReg(R14, 0x20000001)
T16E0 000:694.312 - 0.036ms returns 0
T16E0 000:694.339 JLINK_WriteReg(R15 (PC), 0x2000002C)
T16E0 000:694.364 - 0.036ms returns 0
T16E0 000:694.390 JLINK_WriteReg(XPSR, 0x01000000)
T16E0 000:694.415 - 0.036ms returns 0
